Circuit: * C:\Users\tstor\Github\Bluetooth-Speaker-Senior-Design\docs\LTSPice Schematics\Amplifier\Current_Calc\Dorr_full_RevA.asc

Warning: Multiple definitions of model "2scr375p" Type: BJT
Warning: Multiple definitions of model "bc857b" Type: BJT
Warning: Multiple definitions of model "bc847c" Type: BJT
Warning: Multiple definitions of model "bc847b" Type: BJT
Direct Newton iteration for .op point succeeded.
Semiconductor Device Operating Points:
                        --- Diodes ---
Name:      d1          d2          d3          d4
Model:   1n4148      1n4148      1n4148      1n4148
Id:      1.78e-03    1.78e-03    1.78e-03    1.78e-03
Vd:      6.11e-01    6.11e-01    6.11e-01    6.11e-01
Req:     2.54e+01    2.54e+01    2.54e+01    2.54e+01
CAP:     7.92e-10    7.92e-10    7.92e-10    7.92e-10

                        --- Bipolar Transistors ---
Name:       q5          q7          q1          q2          q11
Model:    2n3904      2n3904      2n3904      2n3904      qd45h8
Ib:       5.54e-06    5.09e-07    5.54e-06    5.09e-07   -1.24e-04
Ic:       1.78e-03    1.65e-04    1.78e-03    1.65e-04   -1.46e-02
Vbe:      6.69e-01    6.07e-01    6.69e-01    6.07e-01   -4.06e-01
Vbc:     -7.74e+00   -7.97e+00   -7.74e+00   -7.97e+00    8.57e+00
Vce:      8.40e+00    8.57e+00    8.40e+00    8.57e+00   -8.98e+00
BetaDC:   3.22e+02    3.24e+02    3.22e+02    3.24e+02    1.18e+02
Gm:       6.86e-02    6.37e-03    6.86e-02    6.37e-03    6.61e-01
Rpi:      4.67e+03    5.08e+04    4.67e+03    5.08e+04    1.77e+02
Rx:       2.00e+01    2.00e+01    2.00e+01    2.00e+01    2.35e+00
Ro:       6.05e+04    6.55e+05    6.05e+04    6.55e+05    1.31e+03
Cbe:      3.67e-11    1.43e-11    3.67e-11    1.43e-11    4.02e-09
Cbc:      1.80e-12    1.78e-12    1.80e-12    1.78e-12    1.92e-10
Cjs:      0.00e+00    0.00e+00    0.00e+00    0.00e+00    0.00e+00
BetaAC:   3.20e+02    3.24e+02    3.20e+02    3.24e+02    1.17e+02
Cbx:      0.00e+00    0.00e+00    0.00e+00    0.00e+00    4.69e-11
Ft:       2.84e+08    6.29e+07    2.84e+08    6.29e+07    2.47e+07

Name:       q3          q12         q4          q8          q6
Model:    qd45h8      qd44h8      qd44h8      2n3906      2n3906
Ib:      -1.24e-04    1.29e-04    1.29e-04   -8.66e-07   -8.66e-07
Ic:      -1.46e-02    1.39e-02    1.39e-02   -1.87e-04   -1.87e-04
Vbe:     -4.06e-01    5.75e-01    5.75e-01   -6.10e-01   -6.10e-01
Vbc:      8.57e+00   -8.44e+00   -8.44e+00    7.83e+00    7.83e+00
Vce:     -8.98e+00    9.01e+00    9.01e+00   -8.44e+00   -8.44e+00
BetaDC:   1.18e+02    1.07e+02    1.07e+02    2.16e+02    2.16e+02
Gm:       6.61e-01    5.11e-01    5.11e-01    7.21e-03    7.21e-03
Rpi:      1.77e+02    2.10e+02    2.10e+02    2.99e+04    2.99e+04
Rx:       2.35e+00    3.99e+00    3.99e+00    2.00e+01    2.00e+01
Ro:       1.31e+03    3.47e+03    3.47e+03    5.77e+05    5.77e+05
Cbe:      4.02e-09    3.28e-09    3.28e-09    0.00e+00    0.00e+00
Cbc:      1.92e-10    1.11e-10    1.11e-10    0.00e+00    0.00e+00
Cjs:      0.00e+00    0.00e+00    0.00e+00    0.00e+00    0.00e+00
BetaAC:   1.17e+02    1.07e+02    1.07e+02    2.15e+02    2.15e+02
Cbx:      4.69e-11    2.71e-11    2.71e-11    0.00e+00    0.00e+00
Ft:       2.47e+07    2.38e+07    2.38e+07    0.00e+00    0.00e+00



Date: Tue Oct  1 17:06:01 2024
Total elapsed time: 0.169 seconds.

tnom = 27
temp = 27
method = trap
totiter = 13
traniter = 0
tranpoints = 0
accept = 0
rejected = 0
matrix size = 61
fillins = 70
solver = Normal
Avg thread counts: 8.0/0.0/8.0/8.0
Matrix Compiler1: 8.19 KB object code size
Matrix Compiler2: 6.53 KB object code size
